T3DDC 000:007.702   SEGGER J-Link V7.94k Log File
T3DDC 000:007.990   DLL Compiled: Feb 21 2024 16:24:45
T3DDC 000:007.998   Logging started @ 2024-03-07 21:30
T3DDC 000:008.005   Process: C:\Keil_v5\UV4\UV4.exe
T3DDC 000:008.014 - 8.012ms
T3DDC 000:008.043 JLINK_SetWarnOutHandler(...)
T3DDC 000:008.052 - 0.010ms
T3DDC 000:008.141 JLINK_OpenEx(...)
T3DDC 000:014.307   Firmware: J-Link OB-STM32F103 V1 compiled Oct 30 2023 12:12:03
T3DDC 000:015.844   Firmware: J-Link OB-STM32F103 V1 compiled Oct 30 2023 12:12:03
T3DDC 000:036.496   Hardware: V1.00
T3DDC 000:036.545   S/N: 660016127
T3DDC 000:036.559   OEM: SEGGER
T3DDC 000:036.573   Feature(s): None
T3DDC 000:037.854   Bootloader: 2013 Nov 11
T3DDC 000:049.659   USB speed mode: Full speed (12 MBit/s)
T3DDC 000:050.384   TELNET listener socket opened on port 19021
T3DDC 000:050.677   WEBSRV WEBSRV_Init(): Starting webserver thread(s)
T3DDC 000:050.799   WEBSRV Failed to put socket into listener state (port 19080)
T3DDC 000:050.937   WEBSRV Webserver running on local port 19081
T3DDC 000:051.194   Looking for J-Link GUI Server exe at: C:\Keil_v5\ARM\Segger\JLinkGUIServer.exe
T3DDC 000:051.356   Looking for J-Link GUI Server exe at: C:\Program Files\SEGGER\JLink_V794k\JLinkGUIServer.exe
T3DDC 000:051.420   Forking J-Link GUI Server: C:\Program Files\SEGGER\JLink_V794k\JLinkGUIServer.exe
T3DDC 000:055.752   J-Link GUI Server info: "J-Link GUI server V7.94k "
T3DDC 000:056.267 - 48.114ms returns "O.K."
T3DDC 000:056.378 JLINK_GetEmuCaps()
T3DDC 000:056.398 - 0.015ms returns 0x98EA5A33
T3DDC 000:056.434 JLINK_TIF_GetAvailable(...)
T3DDC 000:057.666 - 1.230ms
T3DDC 000:057.765 JLINK_SetErrorOutHandler(...)
T3DDC 000:057.780 - 0.015ms
T3DDC 000:057.851 JLINK_ExecCommand("ProjectFile = "C:\SVN\Polaris\software\mcu\customer_evk\dev\keil\demo\JLinkSettings.ini"", ...). 
T3DDC 000:084.456   Ref file found at: C:\Keil_v5\ARM\Segger\JLinkDevices.ref
T3DDC 000:084.600   REF file references invalid XML file: C:\Program Files\SEGGER\JLink_V794k\JLinkDevices.xml
T3DDC 000:093.682   Device "CORTEX-M4" selected.
T3DDC 000:094.320 - 36.461ms returns 0x00
T3DDC 000:099.399 JLINK_ExecCommand("Device = VA416xx", ...). 
T3DDC 000:101.303   Flash bank @ 0x00000000: SFL: Parsing sectorization info from ELF file
T3DDC 000:101.353     FlashDevice.SectorInfo[0]: .SectorSize = 0x00002000, .SectorStartAddr = 0x00000000
T3DDC 000:101.384   OFL: Init() present @ offset 0x00000049
T3DDC 000:101.398   OFL: UnInit() present @ offset 0x000001B1
T3DDC 000:101.409   OFL: EraseSector() present @ offset 0x000003F5
T3DDC 000:101.436   OFL: ProgramPage() present @ offset 0x000004DD
T3DDC 000:101.449   OFL: EraseChip() present @ offset 0x00000285
T3DDC 000:101.460   OFL: BlankCheck() present @ offset 0x00000829
T3DDC 000:101.471   OFL: Verify() present @ offset 0x0000082D
T3DDC 000:101.481   OFL: SEGGER_FL_Erase() N/A
T3DDC 000:101.492   OFL: SEGGER_OPEN_Erase() N/A
T3DDC 000:101.502   OFL: SEGGER_FL_Program() N/A
T3DDC 000:101.515   OFL: SEGGER_OPEN_Program() N/A
T3DDC 000:101.526   OFL: SEGGER_FL_Read() N/A
T3DDC 000:101.546   OFL: SEGGER_OPEN_Read() N/A
T3DDC 000:101.564   OFL: SEGGER_FL_CalcCRC() N/A
T3DDC 000:101.576   OFL: SEGGER_OPEN_CalcCRC() N/A
T3DDC 000:101.587   OFL: SEGGER_FL_Start() N/A
T3DDC 000:101.598   OFL: SEGGER_OPEN_Start() N/A
T3DDC 000:101.615   OFL: SEGGER_FL_GetFlashInfo() N/A
T3DDC 000:101.628   OFL: SEGGER_OPEN_GetFlashInfo() N/A
T3DDC 000:101.639   OFL: SEGGER_FL_Verify() N/A
T3DDC 000:101.650   OFL: SEGGER_FL_CheckBlank() N/A
T3DDC 000:101.672   OFL: SEGGER_FL_Prepare() N/A
T3DDC 000:101.686   OFL: SEGGER_FL_Restore() N/A
T3DDC 000:101.698   OFL: SEGGER_FL_EraseChip() N/A
T3DDC 000:101.709   OFL var <SEGGER_FL_GoIntEn>: N/A
T3DDC 000:105.514   Device "VA416XX" selected.
T3DDC 000:110.279 - 10.809ms returns 0x00
T3DDC 000:110.311 JLINK_ExecCommand("DisableConnectionTimeout", ...). 
T3DDC 000:110.324 - 0.002ms returns 0x01
T3DDC 000:110.334 JLINK_GetHardwareVersion()
T3DDC 000:110.342 - 0.007ms returns 10000
T3DDC 000:110.359 JLINK_GetDLLVersion()
T3DDC 000:110.389 - 0.030ms returns 79411
T3DDC 000:110.406 JLINK_GetOEMString(...)
T3DDC 000:110.415 JLINK_GetFirmwareString(...)
T3DDC 000:110.423 - 0.008ms
T3DDC 000:121.733 JLINK_GetDLLVersion()
T3DDC 000:121.768 - 0.035ms returns 79411
T3DDC 000:121.777 JLINK_GetCompileDateTime()
T3DDC 000:121.784 - 0.006ms
T3DDC 000:125.363 JLINK_GetFirmwareString(...)
T3DDC 000:125.388 - 0.026ms
T3DDC 000:128.564 JLINK_GetHardwareVersion()
T3DDC 000:128.590 - 0.025ms returns 10000
T3DDC 000:132.244 JLINK_GetSN()
T3DDC 000:132.271 - 0.029ms returns 660016127
T3DDC 000:135.534 JLINK_GetOEMString(...)
T3DDC 000:138.786 JLINK_TIF_Select(JLINKARM_TIF_SWD)
T3DDC 000:139.878 - 1.091ms returns 0x00
T3DDC 000:139.936 JLINK_HasError()
T3DDC 000:139.973 JLINK_SetSpeed(2000)
T3DDC 000:140.199 - 0.228ms
T3DDC 000:140.267 JLINK_GetId()
T3DDC 000:148.439   Found SW-DP with ID 0x2BA01477
T3DDC 000:155.504   DPIDR: 0x2BA01477
T3DDC 000:158.599   CoreSight SoC-400 or earlier
T3DDC 000:161.857   Scanning AP map to find all available APs
T3DDC 000:166.058   AP[1]: Stopped AP scan as end of AP map has been reached
T3DDC 000:168.578   AP[0]: AHB-AP (IDR: 0x24770011)
T3DDC 000:171.126   Iterating through AP map to find AHB-AP to use
T3DDC 000:175.090   AP[0]: Core found
T3DDC 000:177.573   AP[0]: AHB-AP ROM base: 0xE00FF000
T3DDC 000:181.504   CPUID register: 0x410FC241. Implementer code: 0x41 (ARM)
T3DDC 000:184.416   Found Cortex-M4 r0p1, Little endian.
T3DDC 000:185.152   -- Max. mem block: 0x000023F8
T3DDC 000:188.968   Cortex-M: The connected J-Link (S/N 660016127) uses an old firmware module: V1 (current is 2)
T3DDC 000:189.010   CPU_ReadMem(4 bytes @ 0xE000EDF0)
T3DDC 000:189.554   CPU_ReadMem(4 bytes @ 0xE0002000)
T3DDC 000:192.632   FPUnit: 6 code (BP) slots and 2 literal slots
T3DDC 000:192.651   CPU_ReadMem(4 bytes @ 0xE000EDFC)
T3DDC 000:193.177   CPU_ReadMem(4 bytes @ 0xE0001000)
T3DDC 000:193.630   CPU_WriteMem(4 bytes @ 0xE0001000)
T3DDC 000:194.169   CPU_ReadMem(4 bytes @ 0xE000ED88)
T3DDC 000:194.785   CPU_WriteMem(4 bytes @ 0xE000ED88)
T3DDC 000:195.614   CPU_ReadMem(4 bytes @ 0xE000ED88)
T3DDC 000:196.198   CPU_WriteMem(4 bytes @ 0xE000ED88)
T3DDC 000:200.100   CoreSight components:
T3DDC 000:203.291   ROMTbl[0] @ E00FF000
T3DDC 000:203.333   CPU_ReadMem(64 bytes @ 0xE00FF000)
T3DDC 000:204.489   CPU_ReadMem(32 bytes @ 0xE000EFE0)
T3DDC 000:208.249   [0][0]: E000E000 CID B105E00D PID 000BB00C SCS-M7
T3DDC 000:208.275   CPU_ReadMem(32 bytes @ 0xE0001FE0)
T3DDC 000:211.983   [0][1]: E0001000 CID B105E00D PID 003BB002 DWT
T3DDC 000:212.019   CPU_ReadMem(32 bytes @ 0xE0002FE0)
T3DDC 000:217.000   [0][2]: E0002000 CID B105E00D PID 002BB003 FPB
T3DDC 000:217.531 - 77.263ms returns 0x2BA01477
T3DDC 000:217.613 JLINK_GetDLLVersion()
T3DDC 000:217.624 - 0.011ms returns 79411
T3DDC 000:217.634 JLINK_CORE_GetFound()
T3DDC 000:217.641 - 0.007ms returns 0xE0000FF
T3DDC 000:217.661 JLINK_GetDebugInfo(0x100 = JLINKARM_ROM_TABLE_ADDR_INDEX)
T3DDC 000:217.675   Value=0xE00FF000
T3DDC 000:217.688 - 0.027ms returns 0
T3DDC 000:220.718 JLINK_GetDebugInfo(0x100 = JLINKARM_ROM_TABLE_ADDR_INDEX)
T3DDC 000:220.744   Value=0xE00FF000
T3DDC 000:220.753 - 0.035ms returns 0
T3DDC 000:220.760 JLINK_GetDebugInfo(0x101 = JLINKARM_DEBUG_INFO_ETM_ADDR_INDEX)
T3DDC 000:220.765   Value=0x00000000
T3DDC 000:220.773 - 0.013ms returns 0
T3DDC 000:220.780 JLINK_ReadMemEx(0xE0041FF0, 0x10 Bytes, Flags = 0x02000004)
T3DDC 000:220.838   CPU_ReadMem(16 bytes @ 0xE0041FF0)
T3DDC 000:221.487   Data:  00 00 00 00 00 00 00 00 00 00 00 00 00 00 00 00
T3DDC 000:221.508 - 0.727ms returns 16 (0x10)
T3DDC 000:221.547 JLINK_GetDebugInfo(0x102 = JLINKARM_DEBUG_INFO_MTB_ADDR_INDEX)
T3DDC 000:221.556   Value=0x00000000
T3DDC 000:221.564 - 0.017ms returns 0
T3DDC 000:221.571 JLINK_GetDebugInfo(0x103 = JLINKARM_DEBUG_INFO_TPIU_ADDR_INDEX)
T3DDC 000:221.576   Value=0x00000000
T3DDC 000:221.588 - 0.017ms returns 0
T3DDC 000:221.595 JLINK_ReadMemEx(0xE0040FF0, 0x10 Bytes, Flags = 0x02000004)
T3DDC 000:221.625   CPU_ReadMem(16 bytes @ 0xE0040FF0)
T3DDC 000:222.183   Data:  00 00 00 00 00 00 00 00 00 00 00 00 00 00 00 00
T3DDC 000:222.200 - 0.604ms returns 16 (0x10)
T3DDC 000:222.228 JLINK_GetDebugInfo(0x104 = JLINKARM_DEBUG_INFO_ITM_ADDR_INDEX)
T3DDC 000:222.235   Value=0xE0000000
T3DDC 000:222.245 - 0.017ms returns 0
T3DDC 000:222.252 JLINK_GetDebugInfo(0x105 = JLINKARM_DEBUG_INFO_DWT_ADDR_INDEX)
T3DDC 000:222.257   Value=0xE0001000
T3DDC 000:222.265 - 0.013ms returns 0
T3DDC 000:222.271 JLINK_GetDebugInfo(0x106 = JLINKARM_DEBUG_INFO_FPB_ADDR_INDEX)
T3DDC 000:222.277   Value=0xE0002000
T3DDC 000:222.285 - 0.013ms returns 0
T3DDC 000:222.292 JLINK_GetDebugInfo(0x107 = JLINKARM_DEBUG_INFO_NVIC_ADDR_INDEX)
T3DDC 000:222.310   Value=0xE000E000
T3DDC 000:222.318 - 0.026ms returns 0
T3DDC 000:222.324 JLINK_GetDebugInfo(0x10C = JLINKARM_DEBUG_INFO_DBG_ADDR_INDEX)
T3DDC 000:222.329   Value=0xE000EDF0
T3DDC 000:222.337 - 0.012ms returns 0
T3DDC 000:222.343 JLINK_GetDebugInfo(0x01 = Unknown)
T3DDC 000:222.348   Value=0x00000001
T3DDC 000:222.356 - 0.012ms returns 0
T3DDC 000:222.362 JLINK_ReadMemU32(0xE000ED00, 0x1 Items)
T3DDC 000:222.370   CPU_ReadMem(4 bytes @ 0xE000ED00)
T3DDC 000:222.789   Data:  41 C2 0F 41
T3DDC 000:222.801   Debug reg: CPUID
T3DDC 000:222.809 - 0.446ms returns 1 (0x1)
T3DDC 000:222.867 JLINK_GetDebugInfo(0x10F = JLINKARM_DEBUG_INFO_HAS_CORTEX_M_SECURITY_EXT_INDEX)
T3DDC 000:222.875   Value=0x00000000
T3DDC 000:222.882 - 0.015ms returns 0
T3DDC 000:222.892 JLINK_HasError()
T3DDC 000:222.901 JLINK_SetResetType(JLINKARM_CM3_RESET_TYPE_CORE)
T3DDC 000:222.920 - 0.006ms returns JLINKARM_CM3_RESET_TYPE_NORMAL
T3DDC 000:222.926 JLINK_Reset()
T3DDC 000:223.450   CPU is running
T3DDC 000:223.475   CPU_WriteMem(4 bytes @ 0xE000EDF0)
T3DDC 000:223.923   CPU is running
T3DDC 000:223.935   CPU_WriteMem(4 bytes @ 0xE000EDFC)
T3DDC 000:227.359   Reset: Halt core after reset via DEMCR.VC_CORERESET.
T3DDC 000:230.997   Reset: Reset device via AIRCR.VECTRESET.
T3DDC 000:231.027   CPU is running
T3DDC 000:231.041   CPU_WriteMem(4 bytes @ 0xE000ED0C)
T3DDC 000:232.363   CPU_ReadMem(4 bytes @ 0xE000EDF0)
T3DDC 000:232.868   CPU_ReadMem(4 bytes @ 0xE000EDF0)
T3DDC 000:233.367   CPU is running
T3DDC 000:233.380   CPU_WriteMem(4 bytes @ 0xE000EDF0)
T3DDC 000:233.824   CPU is running
T3DDC 000:233.836   CPU_WriteMem(4 bytes @ 0xE000EDFC)
T3DDC 000:240.276   CPU_ReadMem(4 bytes @ 0xE000EDF0)
T3DDC 000:248.224   AfterResetTarget() start
T3DDC 000:248.259    J-Link Script File: Executing AfterResetTarget()
T3DDC 000:251.194   AfterResetTarget()
T3DDC 000:251.239   CPU_WriteMem(4 bytes @ 0x400210C0)
T3DDC 000:251.877   CPU_WriteMem(4 bytes @ 0x40021008)
T3DDC 000:252.399   CPU_WriteMem(4 bytes @ 0x40010010)
T3DDC 000:255.788   AfterResetTarget() end - Took 4.64ms
T3DDC 000:255.811   CPU_WriteMem(4 bytes @ 0xE0002000)
T3DDC 000:256.370   CPU_ReadMem(4 bytes @ 0xE000EDFC)
T3DDC 000:256.855   CPU_ReadMem(4 bytes @ 0xE0001000)
T3DDC 000:257.534 - 34.607ms
T3DDC 000:257.573 JLINK_Halt()
T3DDC 000:257.584 - 0.009ms returns 0x00
T3DDC 000:257.594 JLINK_ReadMemU32(0xE000EDF0, 0x1 Items)
T3DDC 000:257.611   CPU_ReadMem(4 bytes @ 0xE000EDF0)
T3DDC 000:261.009   Data:  03 00 03 00
T3DDC 000:261.025   Debug reg: DHCSR
T3DDC 000:261.033 - 3.438ms returns 1 (0x1)
T3DDC 000:261.088 JLINK_WriteU32_64(0xE000EDF0, 0xA05F0003)
T3DDC 000:261.134   Debug reg: DHCSR
T3DDC 000:261.490   CPU_WriteMem(4 bytes @ 0xE000EDF0)
T3DDC 000:262.081 - 0.996ms returns 0 (0x00000000)
T3DDC 000:262.145 JLINK_WriteU32_64(0xE000EDFC, 0x01000000)
T3DDC 000:262.156   Debug reg: DEMCR
T3DDC 000:262.191   CPU_WriteMem(4 bytes @ 0xE000EDFC)
T3DDC 000:262.702 - 0.556ms returns 0 (0x00000000)
T3DDC 000:274.878 JLINK_GetHWStatus(...)
T3DDC 000:275.240 - 0.361ms returns 0
T3DDC 000:285.103 JLINK_GetNumBPUnits(Type = 0xFFFFFF00)
T3DDC 000:285.135 - 0.029ms returns 0x06
T3DDC 000:285.149 JLINK_GetNumBPUnits(Type = 0xF0)
T3DDC 000:285.158 - 0.008ms returns 0x2000
T3DDC 000:285.164 JLINK_GetNumWPUnits()
T3DDC 000:285.175 - 0.009ms returns 4
T3DDC 000:294.227 JLINK_GetSpeed()
T3DDC 000:294.258 - 0.031ms returns 2000
T3DDC 000:304.674 JLINK_ReadMemU32(0xE000E004, 0x1 Items)
T3DDC 000:304.722   CPU_ReadMem(4 bytes @ 0xE000E004)
T3DDC 000:305.792   Data:  07 00 00 00
T3DDC 000:305.818 - 1.144ms returns 1 (0x1)
T3DDC 000:305.870 JLINK_ReadMemU32(0xE000E004, 0x1 Items)
T3DDC 000:305.884   CPU_ReadMem(4 bytes @ 0xE000E004)
T3DDC 000:306.385   Data:  07 00 00 00
T3DDC 000:306.406 - 0.535ms returns 1 (0x1)
T3DDC 000:306.451 JLINK_WriteMemEx(0xE0001000, 0x0000001C Bytes, Flags = 0x02000004)
T3DDC 000:306.461   Data:  01 00 00 00 00 00 00 00 00 00 00 00 00 00 00 00 ...
T3DDC 000:306.479   CPU_WriteMem(28 bytes @ 0xE0001000)
T3DDC 000:307.177 - 0.725ms returns 0x1C
T3DDC 000:307.244 JLINK_Halt()
T3DDC 000:307.253 - 0.009ms returns 0x00
T3DDC 000:307.261 JLINK_IsHalted()
T3DDC 000:307.268 - 0.007ms returns TRUE
T3DDC 000:309.383 JLINK_WriteMem(0x1FFF8000, 0x468 Bytes, ...)
T3DDC 000:309.394   Data:  00 BE 0A E0 0D 78 2D 06 68 40 08 24 40 00 00 D3 ...
T3DDC 000:309.662   CPU_WriteMem(1128 bytes @ 0x1FFF8000)
T3DDC 000:317.568 - 8.184ms returns 0x468
T3DDC 000:317.695 JLINK_HasError()
T3DDC 000:317.721 JLINK_WriteReg(R0, 0x00000000)
T3DDC 000:317.741 - 0.021ms returns 0
T3DDC 000:317.770 JLINK_WriteReg(R1, 0x00B71B00)
T3DDC 000:317.783 - 0.014ms returns 0
T3DDC 000:317.792 JLINK_WriteReg(R2, 0x00000002)
T3DDC 000:317.799 - 0.007ms returns 0
T3DDC 000:317.808 JLINK_WriteReg(R3, 0x00000000)
T3DDC 000:317.815 - 0.007ms returns 0
T3DDC 000:317.823 JLINK_WriteReg(R4, 0x00000000)
T3DDC 000:317.830 - 0.007ms returns 0
T3DDC 000:317.840 JLINK_WriteReg(R5, 0x00000000)
T3DDC 000:317.847 - 0.007ms returns 0
T3DDC 000:317.855 JLINK_WriteReg(R6, 0x00000000)
T3DDC 000:317.862 - 0.007ms returns 0
T3DDC 000:317.870 JLINK_WriteReg(R7, 0x00000000)
T3DDC 000:317.877 - 0.007ms returns 0
T3DDC 000:317.885 JLINK_WriteReg(R8, 0x00000000)
T3DDC 000:317.892 - 0.006ms returns 0
T3DDC 000:317.900 JLINK_WriteReg(R9, 0x1FFF8464)
T3DDC 000:317.907 - 0.007ms returns 0
T3DDC 000:317.916 JLINK_WriteReg(R10, 0x00000000)
T3DDC 000:317.923 - 0.007ms returns 0
T3DDC 000:317.931 JLINK_WriteReg(R11, 0x00000000)
T3DDC 000:317.938 - 0.007ms returns 0
T3DDC 000:317.946 JLINK_WriteReg(R12, 0x00000000)
T3DDC 000:317.954 - 0.007ms returns 0
T3DDC 000:317.964 JLINK_WriteReg(R13 (SP), 0x1FFF9000)
T3DDC 000:317.972 - 0.009ms returns 0
T3DDC 000:317.980 JLINK_WriteReg(R14, 0x1FFF8001)
T3DDC 000:317.987 - 0.007ms returns 0
T3DDC 000:318.003 JLINK_WriteReg(R15 (PC), 0x1FFF805C)
T3DDC 000:318.010 - 0.015ms returns 0
T3DDC 000:318.019 JLINK_WriteReg(XPSR, 0x01000000)
T3DDC 000:318.026 - 0.007ms returns 0
T3DDC 000:318.034 JLINK_WriteReg(MSP, 0x1FFF9000)
T3DDC 000:318.041 - 0.007ms returns 0
T3DDC 000:318.049 JLINK_WriteReg(PSP, 0x1FFF9000)
T3DDC 000:318.056 - 0.007ms returns 0
T3DDC 000:318.078 JLINK_WriteReg(CFBP, 0x00000000)
T3DDC 000:318.085 - 0.007ms returns 0
T3DDC 000:318.095 JLINK_SetBPEx(Addr = 0x1FFF8000, Type = 0xFFFFFFF2)
T3DDC 000:318.103 - 0.008ms returns 0x00000001
T3DDC 000:318.111 JLINK_Go()
T3DDC 000:318.123   CPU_WriteMem(4 bytes @ 0xE0002000)
T3DDC 000:319.205   CPU_ReadMem(4 bytes @ 0xE0001000)
T3DDC 000:319.722   CPU_WriteMem(4 bytes @ 0xE0002008)
T3DDC 000:319.742   CPU_WriteMem(4 bytes @ 0xE000200C)
T3DDC 000:319.752   CPU_WriteMem(4 bytes @ 0xE0002010)
T3DDC 000:319.762   CPU_WriteMem(4 bytes @ 0xE0002014)
T3DDC 000:319.772   CPU_WriteMem(4 bytes @ 0xE0002018)
T3DDC 000:319.782   CPU_WriteMem(4 bytes @ 0xE000201C)
T3DDC 000:321.758   CPU_WriteMem(4 bytes @ 0xE0001004)
T3DDC 000:329.951   Memory map 'after startup completion point' is active
T3DDC 000:329.977 - 11.865ms
T3DDC 000:330.082 JLINK_IsHalted()
T3DDC 000:334.224 - 4.141ms returns TRUE
T3DDC 000:334.290 JLINK_ReadReg(R15 (PC))
T3DDC 000:334.304 - 0.014ms returns 0x1FFF8000
T3DDC 000:334.313 JLINK_ClrBPEx(BPHandle = 0x00000001)
T3DDC 000:334.321 - 0.007ms returns 0x00
T3DDC 000:334.329 JLINK_ReadReg(R0)
T3DDC 000:334.337 - 0.007ms returns 0x00000000
T3DDC 000:334.724 JLINK_WriteMem(0x1FFF8468, 0x100 Bytes, ...)
T3DDC 000:334.737   Data:  08 A0 FF 1F 65 03 00 00 11 45 00 00 0D 3D 00 00 ...
T3DDC 000:334.765   CPU_WriteMem(256 bytes @ 0x1FFF8468)
T3DDC 000:337.143 - 2.419ms returns 0x100
T3DDC 000:337.203 JLINK_HasError()
T3DDC 000:337.221 JLINK_WriteReg(R0, 0x00000000)
T3DDC 000:337.230 - 0.013ms returns 0
T3DDC 000:337.241 JLINK_WriteReg(R1, 0x00000100)
T3DDC 000:337.248 - 0.007ms returns 0
T3DDC 000:337.258 JLINK_WriteReg(R2, 0x1FFF8468)
T3DDC 000:337.265 - 0.007ms returns 0
T3DDC 000:337.273 JLINK_WriteReg(R3, 0x00000000)
T3DDC 000:337.281 - 0.008ms returns 0
T3DDC 000:337.289 JLINK_WriteReg(R4, 0x00000000)
T3DDC 000:337.296 - 0.007ms returns 0
T3DDC 000:337.304 JLINK_WriteReg(R5, 0x00000000)
T3DDC 000:337.311 - 0.006ms returns 0
T3DDC 000:337.320 JLINK_WriteReg(R6, 0x00000000)
T3DDC 000:337.327 - 0.007ms returns 0
T3DDC 000:337.336 JLINK_WriteReg(R7, 0x00000000)
T3DDC 000:337.344 - 0.007ms returns 0
T3DDC 000:337.352 JLINK_WriteReg(R8, 0x00000000)
T3DDC 000:337.359 - 0.007ms returns 0
T3DDC 000:337.367 JLINK_WriteReg(R9, 0x1FFF8464)
T3DDC 000:337.374 - 0.006ms returns 0
T3DDC 000:337.384 JLINK_WriteReg(R10, 0x00000000)
T3DDC 000:337.391 - 0.007ms returns 0
T3DDC 000:337.399 JLINK_WriteReg(R11, 0x00000000)
T3DDC 000:337.406 - 0.007ms returns 0
T3DDC 000:337.414 JLINK_WriteReg(R12, 0x00000000)
T3DDC 000:337.421 - 0.007ms returns 0
T3DDC 000:337.429 JLINK_WriteReg(R13 (SP), 0x1FFF9000)
T3DDC 000:337.437 - 0.008ms returns 0
T3DDC 000:337.446 JLINK_WriteReg(R14, 0x1FFF8001)
T3DDC 000:337.453 - 0.007ms returns 0
T3DDC 000:337.461 JLINK_WriteReg(R15 (PC), 0x1FFF8260)
T3DDC 000:337.468 - 0.007ms returns 0
T3DDC 000:337.477 JLINK_WriteReg(XPSR, 0x01000000)
T3DDC 000:337.484 - 0.007ms returns 0
T3DDC 000:337.492 JLINK_WriteReg(MSP, 0x1FFF9000)
T3DDC 000:337.499 - 0.007ms returns 0
T3DDC 000:337.507 JLINK_WriteReg(PSP, 0x1FFF9000)
T3DDC 000:337.514 - 0.007ms returns 0
T3DDC 000:337.522 JLINK_WriteReg(CFBP, 0x00000000)
T3DDC 000:337.529 - 0.007ms returns 0
T3DDC 000:337.538 JLINK_SetBPEx(Addr = 0x1FFF8000, Type = 0xFFFFFFF2)
T3DDC 000:337.546 - 0.008ms returns 0x00000002
T3DDC 000:337.557 JLINK_Go()
T3DDC 000:337.569   CPU_WriteMem(4 bytes @ 0xE0002000)
T3DDC 000:338.140   CPU_ReadMem(4 bytes @ 0xE0001000)
T3DDC 000:342.395 - 4.837ms
T3DDC 000:342.453 JLINK_IsHalted()
T3DDC 000:346.651 - 4.197ms returns TRUE
T3DDC 000:346.715 JLINK_ReadReg(R15 (PC))
T3DDC 000:346.739 - 0.022ms returns 0x1FFF8000
T3DDC 000:346.747 JLINK_ClrBPEx(BPHandle = 0x00000002)
T3DDC 000:346.755 - 0.007ms returns 0x00
T3DDC 000:346.766 JLINK_ReadReg(R0)
T3DDC 000:346.774 - 0.007ms returns 0x00000000
T3DDC 000:347.339 JLINK_WriteMem(0x1FFF8468, 0x100 Bytes, ...)
T3DDC 000:347.351   Data:  25 4D 00 00 7F 03 00 00 7F 03 00 00 7F 03 00 00 ...
T3DDC 000:347.369   CPU_WriteMem(256 bytes @ 0x1FFF8468)
T3DDC 000:349.688 - 2.348ms returns 0x100
T3DDC 000:349.753 JLINK_HasError()
T3DDC 000:349.765 JLINK_WriteReg(R0, 0x00000100)
T3DDC 000:349.773 - 0.008ms returns 0
T3DDC 000:349.782 JLINK_WriteReg(R1, 0x00000100)
T3DDC 000:349.788 - 0.006ms returns 0
T3DDC 000:349.796 JLINK_WriteReg(R2, 0x1FFF8468)
T3DDC 000:349.802 - 0.006ms returns 0
T3DDC 000:349.809 JLINK_WriteReg(R3, 0x00000000)
T3DDC 000:349.816 - 0.006ms returns 0
T3DDC 000:349.823 JLINK_WriteReg(R4, 0x00000000)
T3DDC 000:349.831 - 0.007ms returns 0
T3DDC 000:349.839 JLINK_WriteReg(R5, 0x00000000)
T3DDC 000:349.845 - 0.006ms returns 0
T3DDC 000:349.853 JLINK_WriteReg(R6, 0x00000000)
T3DDC 000:349.859 - 0.006ms returns 0
T3DDC 000:349.867 JLINK_WriteReg(R7, 0x00000000)
T3DDC 000:349.873 - 0.006ms returns 0
T3DDC 000:349.881 JLINK_WriteReg(R8, 0x00000000)
T3DDC 000:349.887 - 0.006ms returns 0
T3DDC 000:349.894 JLINK_WriteReg(R9, 0x1FFF8464)
T3DDC 000:349.901 - 0.006ms returns 0
T3DDC 000:349.908 JLINK_WriteReg(R10, 0x00000000)
T3DDC 000:349.915 - 0.006ms returns 0
T3DDC 000:349.922 JLINK_WriteReg(R11, 0x00000000)
T3DDC 000:349.929 - 0.006ms returns 0
T3DDC 000:349.948 JLINK_WriteReg(R12, 0x00000000)
T3DDC 000:349.965 - 0.017ms returns 0
T3DDC 000:349.973 JLINK_WriteReg(R13 (SP), 0x1FFF9000)
T3DDC 000:349.979 - 0.006ms returns 0
T3DDC 000:349.987 JLINK_WriteReg(R14, 0x1FFF8001)
T3DDC 000:349.993 - 0.006ms returns 0
T3DDC 000:350.001 JLINK_WriteReg(R15 (PC), 0x1FFF8260)
T3DDC 000:350.008 - 0.006ms returns 0
T3DDC 000:350.015 JLINK_WriteReg(XPSR, 0x01000000)
T3DDC 000:350.022 - 0.006ms returns 0
T3DDC 000:350.029 JLINK_WriteReg(MSP, 0x1FFF9000)
T3DDC 000:350.035 - 0.006ms returns 0
T3DDC 000:350.043 JLINK_WriteReg(PSP, 0x1FFF9000)
T3DDC 000:350.050 - 0.006ms returns 0
T3DDC 000:350.058 JLINK_WriteReg(CFBP, 0x00000000)
T3DDC 000:350.065 - 0.006ms returns 0
T3DDC 000:350.074 JLINK_SetBPEx(Addr = 0x1FFF8000, Type = 0xFFFFFFF2)
T3DDC 000:350.082 - 0.008ms returns 0x00000003
T3DDC 000:350.090 JLINK_Go()
T3DDC 000:350.099   CPU_WriteMem(4 bytes @ 0xE0002000)
T3DDC 000:350.668   CPU_ReadMem(4 bytes @ 0xE0001000)
T3DDC 000:354.862 - 4.771ms
T3DDC 000:354.916 JLINK_IsHalted()
T3DDC 000:359.156 - 4.238ms returns TRUE
T3DDC 000:359.223 JLINK_ReadReg(R15 (PC))
T3DDC 000:359.234 - 0.011ms returns 0x1FFF8000
T3DDC 000:359.249 JLINK_ClrBPEx(BPHandle = 0x00000003)
T3DDC 000:359.259 - 0.012ms returns 0x00
T3DDC 000:359.269 JLINK_ReadReg(R0)
T3DDC 000:359.276 - 0.006ms returns 0x00000000
T3DDC 000:359.799 JLINK_WriteMem(0x1FFF8468, 0x100 Bytes, ...)
T3DDC 000:359.810   Data:  7F 03 00 00 7F 03 00 00 7F 03 00 00 7F 03 00 00 ...
T3DDC 000:359.830   CPU_WriteMem(256 bytes @ 0x1FFF8468)
T3DDC 000:362.323 - 2.523ms returns 0x100
T3DDC 000:362.404 JLINK_HasError()
T3DDC 000:362.415 JLINK_WriteReg(R0, 0x00000200)
T3DDC 000:362.424 - 0.009ms returns 0
T3DDC 000:362.431 JLINK_WriteReg(R1, 0x00000100)
T3DDC 000:362.437 - 0.006ms returns 0
T3DDC 000:362.444 JLINK_WriteReg(R2, 0x1FFF8468)
T3DDC 000:362.451 - 0.006ms returns 0
T3DDC 000:362.458 JLINK_WriteReg(R3, 0x00000000)
T3DDC 000:362.464 - 0.005ms returns 0
T3DDC 000:362.470 JLINK_WriteReg(R4, 0x00000000)
T3DDC 000:362.476 - 0.005ms returns 0
T3DDC 000:362.483 JLINK_WriteReg(R5, 0x00000000)
T3DDC 000:362.489 - 0.006ms returns 0
T3DDC 000:362.496 JLINK_WriteReg(R6, 0x00000000)
T3DDC 000:362.501 - 0.005ms returns 0
T3DDC 000:362.508 JLINK_WriteReg(R7, 0x00000000)
T3DDC 000:362.514 - 0.005ms returns 0
T3DDC 000:362.521 JLINK_WriteReg(R8, 0x00000000)
T3DDC 000:362.526 - 0.005ms returns 0
T3DDC 000:362.533 JLINK_WriteReg(R9, 0x1FFF8464)
T3DDC 000:362.539 - 0.005ms returns 0
T3DDC 000:362.545 JLINK_WriteReg(R10, 0x00000000)
T3DDC 000:362.551 - 0.005ms returns 0
T3DDC 000:362.558 JLINK_WriteReg(R11, 0x00000000)
T3DDC 000:362.564 - 0.005ms returns 0
T3DDC 000:362.570 JLINK_WriteReg(R12, 0x00000000)
T3DDC 000:362.576 - 0.005ms returns 0
T3DDC 000:362.583 JLINK_WriteReg(R13 (SP), 0x1FFF9000)
T3DDC 000:362.590 - 0.006ms returns 0
T3DDC 000:362.596 JLINK_WriteReg(R14, 0x1FFF8001)
T3DDC 000:362.602 - 0.005ms returns 0
T3DDC 000:362.609 JLINK_WriteReg(R15 (PC), 0x1FFF8260)
T3DDC 000:362.615 - 0.006ms returns 0
T3DDC 000:362.622 JLINK_WriteReg(XPSR, 0x01000000)
T3DDC 000:362.628 - 0.006ms returns 0
T3DDC 000:362.634 JLINK_WriteReg(MSP, 0x1FFF9000)
T3DDC 000:362.640 - 0.005ms returns 0
T3DDC 000:362.647 JLINK_WriteReg(PSP, 0x1FFF9000)
T3DDC 000:362.653 - 0.005ms returns 0
T3DDC 000:362.660 JLINK_WriteReg(CFBP, 0x00000000)
T3DDC 000:362.665 - 0.005ms returns 0
T3DDC 000:362.673 JLINK_SetBPEx(Addr = 0x1FFF8000, Type = 0xFFFFFFF2)
T3DDC 000:362.680 - 0.007ms returns 0x00000004
T3DDC 000:362.688 JLINK_Go()
T3DDC 000:362.708   CPU_WriteMem(4 bytes @ 0xE0002000)
T3DDC 000:363.399   CPU_ReadMem(4 bytes @ 0xE0001000)
T3DDC 000:368.427 - 5.737ms
T3DDC 000:368.510 JLINK_IsHalted()
T3DDC 000:373.173 - 4.661ms returns TRUE
T3DDC 000:373.261 JLINK_ReadReg(R15 (PC))
T3DDC 000:373.291 - 0.031ms returns 0x1FFF8000
T3DDC 000:373.307 JLINK_ClrBPEx(BPHandle = 0x00000004)
T3DDC 000:373.317 - 0.010ms returns 0x00
T3DDC 000:373.328 JLINK_ReadReg(R0)
T3DDC 000:373.336 - 0.008ms returns 0x00000000
T3DDC 000:374.002 JLINK_WriteMem(0x1FFF8468, 0x100 Bytes, ...)
T3DDC 000:374.030   Data:  7F 03 00 00 7F 03 00 00 ED 1E 00 00 F9 1E 00 00 ...
T3DDC 000:374.051   CPU_WriteMem(256 bytes @ 0x1FFF8468)
T3DDC 000:376.653 - 2.650ms returns 0x100
T3DDC 000:376.742 JLINK_HasError()
T3DDC 000:376.780 JLINK_WriteReg(R0, 0x00000300)
T3DDC 000:376.793 - 0.012ms returns 0
T3DDC 000:376.802 JLINK_WriteReg(R1, 0x00000100)
T3DDC 000:376.810 - 0.008ms returns 0
T3DDC 000:376.819 JLINK_WriteReg(R2, 0x1FFF8468)
T3DDC 000:376.826 - 0.007ms returns 0
T3DDC 000:376.834 JLINK_WriteReg(R3, 0x00000000)
T3DDC 000:376.841 - 0.007ms returns 0
T3DDC 000:376.850 JLINK_WriteReg(R4, 0x00000000)
T3DDC 000:376.857 - 0.007ms returns 0
T3DDC 000:376.866 JLINK_WriteReg(R5, 0x00000000)
T3DDC 000:376.873 - 0.007ms returns 0
T3DDC 000:376.881 JLINK_WriteReg(R6, 0x00000000)
T3DDC 000:376.889 - 0.007ms returns 0
T3DDC 000:376.897 JLINK_WriteReg(R7, 0x00000000)
T3DDC 000:376.905 - 0.007ms returns 0
T3DDC 000:376.914 JLINK_WriteReg(R8, 0x00000000)
T3DDC 000:376.921 - 0.007ms returns 0
T3DDC 000:376.929 JLINK_WriteReg(R9, 0x1FFF8464)
T3DDC 000:376.937 - 0.007ms returns 0
T3DDC 000:376.945 JLINK_WriteReg(R10, 0x00000000)
T3DDC 000:376.952 - 0.007ms returns 0
T3DDC 000:376.961 JLINK_WriteReg(R11, 0x00000000)
T3DDC 000:376.968 - 0.007ms returns 0
T3DDC 000:376.976 JLINK_WriteReg(R12, 0x00000000)
T3DDC 000:376.985 - 0.008ms returns 0
T3DDC 000:376.993 JLINK_WriteReg(R13 (SP), 0x1FFF9000)
T3DDC 000:377.001 - 0.008ms returns 0
T3DDC 000:377.009 JLINK_WriteReg(R14, 0x1FFF8001)
T3DDC 000:377.016 - 0.007ms returns 0
T3DDC 000:377.028 JLINK_WriteReg(R15 (PC), 0x1FFF8260)
T3DDC 000:377.035 - 0.008ms returns 0
T3DDC 000:377.044 JLINK_WriteReg(XPSR, 0x01000000)
T3DDC 000:377.051 - 0.007ms returns 0
T3DDC 000:377.059 JLINK_WriteReg(MSP, 0x1FFF9000)
T3DDC 000:377.080 - 0.020ms returns 0
T3DDC 000:377.088 JLINK_WriteReg(PSP, 0x1FFF9000)
T3DDC 000:377.095 - 0.007ms returns 0
T3DDC 000:377.103 JLINK_WriteReg(CFBP, 0x00000000)
T3DDC 000:377.110 - 0.006ms returns 0
T3DDC 000:377.119 JLINK_SetBPEx(Addr = 0x1FFF8000, Type = 0xFFFFFFF2)
T3DDC 000:377.127 - 0.008ms returns 0x00000005
T3DDC 000:377.136 JLINK_Go()
T3DDC 000:377.148   CPU_WriteMem(4 bytes @ 0xE0002000)
T3DDC 000:377.797   CPU_ReadMem(4 bytes @ 0xE0001000)
T3DDC 000:382.988 - 5.851ms
T3DDC 000:383.098 JLINK_IsHalted()
T3DDC 000:387.837 - 4.737ms returns TRUE
T3DDC 000:387.982 JLINK_ReadReg(R15 (PC))
T3DDC 000:388.030 - 0.047ms returns 0x1FFF8000
T3DDC 000:388.044 JLINK_ClrBPEx(BPHandle = 0x00000005)
T3DDC 000:388.071 - 0.026ms returns 0x00
T3DDC 000:388.087 JLINK_ReadReg(R0)
T3DDC 000:388.102 - 0.015ms returns 0x00000000
T3DDC 000:388.806 JLINK_WriteMem(0x1FFF8468, 0x100 Bytes, ...)
T3DDC 000:388.828   Data:  01 03 9B 07 03 D0 09 E0 08 C9 12 1F 08 C0 04 2A ...
T3DDC 000:388.866   CPU_WriteMem(256 bytes @ 0x1FFF8468)
T3DDC 000:391.546 - 2.738ms returns 0x100
T3DDC 000:391.660 JLINK_HasError()
T3DDC 000:391.681 JLINK_WriteReg(R0, 0x00000400)
T3DDC 000:391.694 - 0.013ms returns 0
T3DDC 000:391.703 JLINK_WriteReg(R1, 0x00000100)
T3DDC 000:391.711 - 0.007ms returns 0
T3DDC 000:391.720 JLINK_WriteReg(R2, 0x1FFF8468)
T3DDC 000:391.727 - 0.007ms returns 0
T3DDC 000:391.740 JLINK_WriteReg(R3, 0x00000000)
T3DDC 000:391.749 - 0.008ms returns 0
T3DDC 000:391.758 JLINK_WriteReg(R4, 0x00000000)
T3DDC 000:391.766 - 0.007ms returns 0
T3DDC 000:391.775 JLINK_WriteReg(R5, 0x00000000)
T3DDC 000:391.782 - 0.007ms returns 0
T3DDC 000:391.791 JLINK_WriteReg(R6, 0x00000000)
T3DDC 000:391.798 - 0.007ms returns 0
T3DDC 000:391.807 JLINK_WriteReg(R7, 0x00000000)
T3DDC 000:391.814 - 0.007ms returns 0
T3DDC 000:391.823 JLINK_WriteReg(R8, 0x00000000)
T3DDC 000:391.831 - 0.007ms returns 0
T3DDC 000:391.839 JLINK_WriteReg(R9, 0x1FFF8464)
T3DDC 000:391.847 - 0.007ms returns 0
T3DDC 000:391.855 JLINK_WriteReg(R10, 0x00000000)
T3DDC 000:391.862 - 0.007ms returns 0
T3DDC 000:391.871 JLINK_WriteReg(R11, 0x00000000)
T3DDC 000:391.879 - 0.008ms returns 0
T3DDC 000:391.888 JLINK_WriteReg(R12, 0x00000000)
T3DDC 000:391.905 - 0.016ms returns 0
T3DDC 000:391.914 JLINK_WriteReg(R13 (SP), 0x1FFF9000)
T3DDC 000:391.922 - 0.008ms returns 0
T3DDC 000:391.931 JLINK_WriteReg(R14, 0x1FFF8001)
T3DDC 000:391.938 - 0.007ms returns 0
T3DDC 000:391.947 JLINK_WriteReg(R15 (PC), 0x1FFF8260)
T3DDC 000:391.955 - 0.007ms returns 0
T3DDC 000:391.963 JLINK_WriteReg(XPSR, 0x01000000)
T3DDC 000:391.971 - 0.007ms returns 0
T3DDC 000:391.979 JLINK_WriteReg(MSP, 0x1FFF9000)
T3DDC 000:391.988 - 0.008ms returns 0
T3DDC 000:391.997 JLINK_WriteReg(PSP, 0x1FFF9000)
T3DDC 000:392.006 - 0.009ms returns 0
T3DDC 000:392.016 JLINK_WriteReg(CFBP, 0x00000000)
T3DDC 000:392.023 - 0.007ms returns 0
T3DDC 000:392.032 JLINK_SetBPEx(Addr = 0x1FFF8000, Type = 0xFFFFFFF2)
T3DDC 000:392.041 - 0.009ms returns 0x00000006
T3DDC 000:392.050 JLINK_Go()
T3DDC 000:392.063   CPU_WriteMem(4 bytes @ 0xE0002000)
T3DDC 000:393.019   CPU_ReadMem(4 bytes @ 0xE0001000)
T3DDC 000:398.399 - 6.348ms
T3DDC 000:398.510 JLINK_IsHalted()
T3DDC 000:403.375 - 4.864ms returns TRUE
T3DDC 000:403.492 JLINK_ReadReg(R15 (PC))
T3DDC 000:403.532 - 0.038ms returns 0x1FFF8000
T3DDC 000:403.544 JLINK_ClrBPEx(BPHandle = 0x00000006)
T3DDC 000:403.554 - 0.010ms returns 0x00
T3DDC 000:403.569 JLINK_ReadReg(R0)
T3DDC 000:403.580 - 0.010ms returns 0x00000000
T3DDC 000:404.330 JLINK_WriteMem(0x1FFF8468, 0x100 Bytes, ...)
T3DDC 000:404.353   Data:  00 80 0A E0 5F EA CA 70 01 D1 08 F8 01 5B A1 69 ...
T3DDC 000:404.393   CPU_WriteMem(256 bytes @ 0x1FFF8468)
T3DDC 000:406.793 - 2.461ms returns 0x100
T3DDC 000:406.881 JLINK_HasError()
T3DDC 000:406.898 JLINK_WriteReg(R0, 0x00000500)
T3DDC 000:406.918 - 0.020ms returns 0
T3DDC 000:406.928 JLINK_WriteReg(R1, 0x00000100)
T3DDC 000:406.937 - 0.008ms returns 0
T3DDC 000:406.946 JLINK_WriteReg(R2, 0x1FFF8468)
T3DDC 000:406.955 - 0.008ms returns 0
T3DDC 000:406.966 JLINK_WriteReg(R3, 0x00000000)
T3DDC 000:406.975 - 0.008ms returns 0
T3DDC 000:406.984 JLINK_WriteReg(R4, 0x00000000)
T3DDC 000:406.993 - 0.008ms returns 0
T3DDC 000:407.003 JLINK_WriteReg(R5, 0x00000000)
T3DDC 000:407.011 - 0.008ms returns 0
T3DDC 000:407.021 JLINK_WriteReg(R6, 0x00000000)
T3DDC 000:407.029 - 0.008ms returns 0
T3DDC 000:407.039 JLINK_WriteReg(R7, 0x00000000)
T3DDC 000:407.047 - 0.008ms returns 0
T3DDC 000:407.057 JLINK_WriteReg(R8, 0x00000000)
T3DDC 000:407.066 - 0.008ms returns 0
T3DDC 000:407.076 JLINK_WriteReg(R9, 0x1FFF8464)
T3DDC 000:407.084 - 0.008ms returns 0
T3DDC 000:407.094 JLINK_WriteReg(R10, 0x00000000)
T3DDC 000:407.103 - 0.008ms returns 0
T3DDC 000:407.113 JLINK_WriteReg(R11, 0x00000000)
T3DDC 000:407.121 - 0.008ms returns 0
T3DDC 000:407.131 JLINK_WriteReg(R12, 0x00000000)
T3DDC 000:407.139 - 0.008ms returns 0
T3DDC 000:407.150 JLINK_WriteReg(R13 (SP), 0x1FFF9000)
T3DDC 000:407.160 - 0.011ms returns 0
T3DDC 000:407.170 JLINK_WriteReg(R14, 0x1FFF8001)
T3DDC 000:407.179 - 0.008ms returns 0
T3DDC 000:407.189 JLINK_WriteReg(R15 (PC), 0x1FFF8260)
T3DDC 000:407.198 - 0.008ms returns 0
T3DDC 000:407.208 JLINK_WriteReg(XPSR, 0x01000000)
T3DDC 000:407.217 - 0.008ms returns 0
T3DDC 000:407.226 JLINK_WriteReg(MSP, 0x1FFF9000)
T3DDC 000:407.235 - 0.008ms returns 0
T3DDC 000:407.244 JLINK_WriteReg(PSP, 0x1FFF9000)
T3DDC 000:407.253 - 0.008ms returns 0
T3DDC 000:407.263 JLINK_WriteReg(CFBP, 0x00000000)
T3DDC 000:407.271 - 0.008ms returns 0
T3DDC 000:407.282 JLINK_SetBPEx(Addr = 0x1FFF8000, Type = 0xFFFFFFF2)
T3DDC 000:407.291 - 0.010ms returns 0x00000007
T3DDC 000:407.301 JLINK_Go()
T3DDC 000:407.314   CPU_WriteMem(4 bytes @ 0xE0002000)
T3DDC 000:407.881   CPU_ReadMem(4 bytes @ 0xE0001000)
T3DDC 000:412.178 - 4.875ms
T3DDC 000:412.255 JLINK_IsHalted()
T3DDC 000:416.429 - 4.173ms returns TRUE
T3DDC 000:416.519 JLINK_ReadReg(R15 (PC))
T3DDC 000:416.538 - 0.019ms returns 0x1FFF8000
T3DDC 000:416.550 JLINK_ClrBPEx(BPHandle = 0x00000007)
T3DDC 000:416.560 - 0.010ms returns 0x00
T3DDC 000:416.571 JLINK_ReadReg(R0)
T3DDC 000:416.580 - 0.009ms returns 0x00000000
T3DDC 000:417.184 JLINK_WriteMem(0x1FFF8468, 0x100 Bytes, ...)
T3DDC 000:417.261   Data:  81 EA 03 00 C0 0F 0C 46 00 90 21 F0 00 41 23 F0 ...
T3DDC 000:417.291   CPU_WriteMem(256 bytes @ 0x1FFF8468)
T3DDC 000:419.659 - 2.474ms returns 0x100
T3DDC 000:419.740 JLINK_HasError()
T3DDC 000:419.757 JLINK_WriteReg(R0, 0x00000600)
T3DDC 000:419.769 - 0.012ms returns 0
T3DDC 000:419.783 JLINK_WriteReg(R1, 0x00000100)
T3DDC 000:419.793 - 0.009ms returns 0
T3DDC 000:419.804 JLINK_WriteReg(R2, 0x1FFF8468)
T3DDC 000:419.813 - 0.008ms returns 0
T3DDC 000:419.823 JLINK_WriteReg(R3, 0x00000000)
T3DDC 000:419.833 - 0.010ms returns 0
T3DDC 000:419.849 JLINK_WriteReg(R4, 0x00000000)
T3DDC 000:419.858 - 0.008ms returns 0
T3DDC 000:419.868 JLINK_WriteReg(R5, 0x00000000)
T3DDC 000:419.876 - 0.008ms returns 0
T3DDC 000:419.886 JLINK_WriteReg(R6, 0x00000000)
T3DDC 000:419.895 - 0.008ms returns 0
T3DDC 000:419.905 JLINK_WriteReg(R7, 0x00000000)
T3DDC 000:419.914 - 0.008ms returns 0
T3DDC 000:419.925 JLINK_WriteReg(R8, 0x00000000)
T3DDC 000:419.934 - 0.008ms returns 0
T3DDC 000:419.944 JLINK_WriteReg(R9, 0x1FFF8464)
T3DDC 000:419.952 - 0.008ms returns 0
T3DDC 000:419.963 JLINK_WriteReg(R10, 0x00000000)
T3DDC 000:419.972 - 0.009ms returns 0
T3DDC 000:419.982 JLINK_WriteReg(R11, 0x00000000)
T3DDC 000:419.991 - 0.008ms returns 0
T3DDC 000:420.001 JLINK_WriteReg(R12, 0x00000000)
T3DDC 000:420.010 - 0.008ms returns 0
T3DDC 000:420.020 JLINK_WriteReg(R13 (SP), 0x1FFF9000)
T3DDC 000:420.029 - 0.009ms returns 0
T3DDC 000:420.040 JLINK_WriteReg(R14, 0x1FFF8001)
T3DDC 000:420.049 - 0.009ms returns 0
T3DDC 000:420.060 JLINK_WriteReg(R15 (PC), 0x1FFF8260)
T3DDC 000:420.069 - 0.009ms returns 0
T3DDC 000:420.079 JLINK_WriteReg(XPSR, 0x01000000)
T3DDC 000:420.088 - 0.009ms returns 0
T3DDC 000:420.098 JLINK_WriteReg(MSP, 0x1FFF9000)
T3DDC 000:420.107 - 0.008ms returns 0
T3DDC 000:420.117 JLINK_WriteReg(PSP, 0x1FFF9000)
T3DDC 000:420.126 - 0.008ms returns 0
T3DDC 000:420.136 JLINK_WriteReg(CFBP, 0x00000000)
T3DDC 000:420.145 - 0.008ms returns 0
T3DDC 000:420.156 JLINK_SetBPEx(Addr = 0x1FFF8000, Type = 0xFFFFFFF2)
T3DDC 000:420.166 - 0.010ms returns 0x00000008
T3DDC 000:420.177 JLINK_Go()
T3DDC 000:420.195   CPU_WriteMem(4 bytes @ 0xE0002000)
T3DDC 000:420.854   CPU_ReadMem(4 bytes @ 0xE0001000)
T3DDC 000:425.212 - 5.034ms
T3DDC 000:425.292 JLINK_IsHalted()
T3DDC 000:429.650 - 4.357ms returns TRUE
T3DDC 000:429.762 JLINK_ReadReg(R15 (PC))
T3DDC 000:429.792 - 0.029ms returns 0x1FFF8000
T3DDC 000:429.819 JLINK_ClrBPEx(BPHandle = 0x00000008)
T3DDC 000:429.836 - 0.017ms returns 0x00
T3DDC 000:429.855 JLINK_ReadReg(R0)
T3DDC 000:429.868 - 0.012ms returns 0x00000000
T3DDC 000:430.783 JLINK_WriteMem(0x1FFF8468, 0x100 Bytes, ...)
T3DDC 000:430.808   Data:  80 11 49 08 4F EA 30 00 00 19 51 41 32 46 2B 46 ...
T3DDC 000:430.834   CPU_WriteMem(256 bytes @ 0x1FFF8468)
T3DDC 000:433.254 - 2.471ms returns 0x100
T3DDC 000:433.341 JLINK_HasError()
T3DDC 000:433.359 JLINK_WriteReg(R0, 0x00000700)
T3DDC 000:433.373 - 0.014ms returns 0
T3DDC 000:433.385 JLINK_WriteReg(R1, 0x00000100)
T3DDC 000:433.396 - 0.011ms returns 0
T3DDC 000:433.408 JLINK_WriteReg(R2, 0x1FFF8468)
T3DDC 000:433.418 - 0.010ms returns 0
T3DDC 000:433.430 JLINK_WriteReg(R3, 0x00000000)
T3DDC 000:433.439 - 0.009ms returns 0
T3DDC 000:433.451 JLINK_WriteReg(R4, 0x00000000)
T3DDC 000:433.461 - 0.010ms returns 0
T3DDC 000:433.472 JLINK_WriteReg(R5, 0x00000000)
T3DDC 000:433.482 - 0.009ms returns 0
T3DDC 000:433.494 JLINK_WriteReg(R6, 0x00000000)
T3DDC 000:433.504 - 0.009ms returns 0
T3DDC 000:433.515 JLINK_WriteReg(R7, 0x00000000)
T3DDC 000:433.525 - 0.009ms returns 0
T3DDC 000:433.537 JLINK_WriteReg(R8, 0x00000000)
T3DDC 000:433.547 - 0.009ms returns 0
T3DDC 000:433.558 JLINK_WriteReg(R9, 0x1FFF8464)
T3DDC 000:433.569 - 0.010ms returns 0
T3DDC 000:433.580 JLINK_WriteReg(R10, 0x00000000)
T3DDC 000:433.590 - 0.009ms returns 0
T3DDC 000:433.602 JLINK_WriteReg(R11, 0x00000000)
T3DDC 000:433.612 - 0.009ms returns 0
T3DDC 000:433.623 JLINK_WriteReg(R12, 0x00000000)
T3DDC 000:433.711 - 0.087ms returns 0
T3DDC 000:433.734 JLINK_WriteReg(R13 (SP), 0x1FFF9000)
T3DDC 000:433.744 - 0.011ms returns 0
T3DDC 000:433.756 JLINK_WriteReg(R14, 0x1FFF8001)
T3DDC 000:433.771 - 0.015ms returns 0
T3DDC 000:433.783 JLINK_WriteReg(R15 (PC), 0x1FFF8260)
T3DDC 000:433.793 - 0.010ms returns 0
T3DDC 000:433.805 JLINK_WriteReg(XPSR, 0x01000000)
T3DDC 000:433.815 - 0.010ms returns 0
T3DDC 000:433.827 JLINK_WriteReg(MSP, 0x1FFF9000)
T3DDC 000:433.837 - 0.010ms returns 0
T3DDC 000:433.848 JLINK_WriteReg(PSP, 0x1FFF9000)
T3DDC 000:433.858 - 0.010ms returns 0
T3DDC 000:433.870 JLINK_WriteReg(CFBP, 0x00000000)
T3DDC 000:433.879 - 0.009ms returns 0
T3DDC 000:433.892 JLINK_SetBPEx(Addr = 0x1FFF8000, Type = 0xFFFFFFF2)
T3DDC 000:433.903 - 0.011ms returns 0x00000009
T3DDC 000:433.915 JLINK_Go()
T3DDC 000:433.929   CPU_WriteMem(4 bytes @ 0xE0002000)
T3DDC 000:434.550   CPU_ReadMem(4 bytes @ 0xE0001000)
T3DDC 000:438.880 - 4.965ms
T3DDC 000:438.961 JLINK_IsHalted()
T3DDC 000:443.268 - 4.306ms returns TRUE
T3DDC 000:443.349 JLINK_ReadReg(R15 (PC))
T3DDC 000:443.366 - 0.016ms returns 0x1FFF8000
T3DDC 000:443.378 JLINK_ClrBPEx(BPHandle = 0x00000009)
T3DDC 000:443.389 - 0.010ms returns 0x00
T3DDC 000:443.402 JLINK_ReadReg(R0)
T3DDC 000:443.413 - 0.010ms returns 0x00000000
T3DDC 000:444.064 JLINK_WriteMem(0x1FFF8468, 0x100 Bytes, ...)
T3DDC 000:444.088   Data:  0B 33 43 EA 14 53 4F EA 04 32 01 9C 43 EA 06 03 ...
T3DDC 000:444.124   CPU_WriteMem(256 bytes @ 0x1FFF8468)
T3DDC 000:446.572 - 2.508ms returns 0x100
T3DDC 000:446.661 JLINK_HasError()
T3DDC 000:446.681 JLINK_WriteReg(R0, 0x00000800)
T3DDC 000:446.694 - 0.013ms returns 0
T3DDC 000:446.710 JLINK_WriteReg(R1, 0x00000100)
T3DDC 000:446.732 - 0.021ms returns 0
T3DDC 000:446.752 JLINK_WriteReg(R2, 0x1FFF8468)
T3DDC 000:446.762 - 0.010ms returns 0
T3DDC 000:446.775 JLINK_WriteReg(R3, 0x00000000)
T3DDC 000:446.787 - 0.011ms returns 0
T3DDC 000:446.799 JLINK_WriteReg(R4, 0x00000000)
T3DDC 000:446.809 - 0.009ms returns 0
T3DDC 000:446.820 JLINK_WriteReg(R5, 0x00000000)
T3DDC 000:446.830 - 0.010ms returns 0
T3DDC 000:446.842 JLINK_WriteReg(R6, 0x00000000)
T3DDC 000:446.852 - 0.010ms returns 0
T3DDC 000:446.863 JLINK_WriteReg(R7, 0x00000000)
T3DDC 000:446.873 - 0.009ms returns 0
T3DDC 000:446.885 JLINK_WriteReg(R8, 0x00000000)
T3DDC 000:446.894 - 0.009ms returns 0
T3DDC 000:446.906 JLINK_WriteReg(R9, 0x1FFF8464)
T3DDC 000:446.916 - 0.009ms returns 0
T3DDC 000:446.928 JLINK_WriteReg(R10, 0x00000000)
T3DDC 000:446.938 - 0.010ms returns 0
T3DDC 000:446.949 JLINK_WriteReg(R11, 0x00000000)
T3DDC 000:446.959 - 0.009ms returns 0
T3DDC 000:446.971 JLINK_WriteReg(R12, 0x00000000)
T3DDC 000:446.981 - 0.009ms returns 0
T3DDC 000:446.993 JLINK_WriteReg(R13 (SP), 0x1FFF9000)
T3DDC 000:447.004 - 0.011ms returns 0
T3DDC 000:447.015 JLINK_WriteReg(R14, 0x1FFF8001)
T3DDC 000:447.025 - 0.010ms returns 0
T3DDC 000:447.037 JLINK_WriteReg(R15 (PC), 0x1FFF8260)
T3DDC 000:447.047 - 0.010ms returns 0
T3DDC 000:447.059 JLINK_WriteReg(XPSR, 0x01000000)
T3DDC 000:447.069 - 0.009ms returns 0
T3DDC 000:447.081 JLINK_WriteReg(MSP, 0x1FFF9000)
T3DDC 000:447.091 - 0.010ms returns 0
T3DDC 000:447.102 JLINK_WriteReg(PSP, 0x1FFF9000)
T3DDC 000:447.112 - 0.010ms returns 0
T3DDC 000:447.123 JLINK_WriteReg(CFBP, 0x00000000)
T3DDC 000:447.133 - 0.010ms returns 0
T3DDC 000:447.147 JLINK_SetBPEx(Addr = 0x1FFF8000, Type = 0xFFFFFFF2)
T3DDC 000:447.159 - 0.012ms returns 0x0000000A
T3DDC 000:447.171 JLINK_Go()
T3DDC 000:447.187   CPU_WriteMem(4 bytes @ 0xE0002000)
T3DDC 000:447.795   CPU_ReadMem(4 bytes @ 0xE0001000)
T3DDC 000:452.229 - 5.057ms
T3DDC 000:452.319 JLINK_IsHalted()
T3DDC 000:456.726 - 4.406ms returns TRUE
T3DDC 000:456.815 JLINK_ReadReg(R15 (PC))
T3DDC 000:456.832 - 0.017ms returns 0x1FFF8000
T3DDC 000:456.844 JLINK_ClrBPEx(BPHandle = 0x0000000A)
T3DDC 000:456.855 - 0.010ms returns 0x00
T3DDC 000:456.870 JLINK_ReadReg(R0)
T3DDC 000:456.881 - 0.010ms returns 0x00000000
T3DDC 000:457.580 JLINK_WriteMem(0x1FFF8468, 0x100 Bytes, ...)
T3DDC 000:457.602   Data:  0B 01 BD E8 F0 4D 00 F0 7A B9 30 B5 04 1E 71 F1 ...
T3DDC 000:457.627   CPU_WriteMem(256 bytes @ 0x1FFF8468)
T3DDC 000:460.295 - 2.714ms returns 0x100
T3DDC 000:460.425 JLINK_HasError()
T3DDC 000:460.447 JLINK_WriteReg(R0, 0x00000900)
T3DDC 000:460.466 - 0.018ms returns 0
T3DDC 000:460.481 JLINK_WriteReg(R1, 0x00000100)
T3DDC 000:460.492 - 0.010ms returns 0
T3DDC 000:460.503 JLINK_WriteReg(R2, 0x1FFF8468)
T3DDC 000:460.515 - 0.011ms returns 0
T3DDC 000:460.526 JLINK_WriteReg(R3, 0x00000000)
T3DDC 000:460.536 - 0.010ms returns 0
T3DDC 000:460.547 JLINK_WriteReg(R4, 0x00000000)
T3DDC 000:460.557 - 0.009ms returns 0
T3DDC 000:460.569 JLINK_WriteReg(R5, 0x00000000)
T3DDC 000:460.579 - 0.010ms returns 0
T3DDC 000:460.591 JLINK_WriteReg(R6, 0x00000000)
T3DDC 000:460.601 - 0.009ms returns 0
T3DDC 000:460.612 JLINK_WriteReg(R7, 0x00000000)
T3DDC 000:460.625 - 0.013ms returns 0
T3DDC 000:460.638 JLINK_WriteReg(R8, 0x00000000)
T3DDC 000:460.649 - 0.010ms returns 0
T3DDC 000:460.662 JLINK_WriteReg(R9, 0x1FFF8464)
T3DDC 000:460.674 - 0.012ms returns 0
T3DDC 000:460.687 JLINK_WriteReg(R10, 0x00000000)
T3DDC 000:460.698 - 0.010ms returns 0
T3DDC 000:460.711 JLINK_WriteReg(R11, 0x00000000)
T3DDC 000:460.722 - 0.011ms returns 0
T3DDC 000:460.736 JLINK_WriteReg(R12, 0x00000000)
T3DDC 000:460.747 - 0.010ms returns 0
T3DDC 000:460.761 JLINK_WriteReg(R13 (SP), 0x1FFF9000)
T3DDC 000:460.776 - 0.015ms returns 0
T3DDC 000:460.794 JLINK_WriteReg(R14, 0x1FFF8001)
T3DDC 000:460.813 - 0.018ms returns 0
T3DDC 000:460.832 JLINK_WriteReg(R15 (PC), 0x1FFF8260)
T3DDC 000:460.844 - 0.013ms returns 0
T3DDC 000:460.856 JLINK_WriteReg(XPSR, 0x01000000)
T3DDC 000:460.866 - 0.009ms returns 0
T3DDC 000:460.882 JLINK_WriteReg(MSP, 0x1FFF9000)
T3DDC 000:460.893 - 0.015ms returns 0
T3DDC 000:460.904 JLINK_WriteReg(PSP, 0x1FFF9000)
T3DDC 000:460.914 - 0.009ms returns 0
T3DDC 000:460.930 JLINK_WriteReg(CFBP, 0x00000000)
T3DDC 000:460.940 - 0.010ms returns 0
T3DDC 000:460.953 JLINK_SetBPEx(Addr = 0x1FFF8000, Type = 0xFFFFFFF2)
T3DDC 000:460.965 - 0.012ms returns 0x0000000B
T3DDC 000:460.977 JLINK_Go()
T3DDC 000:460.997   CPU_WriteMem(4 bytes @ 0xE0002000)
T3DDC 000:461.759   CPU_ReadMem(4 bytes @ 0xE0001000)
T3DDC 000:466.725 - 5.746ms
T3DDC 000:466.858 JLINK_IsHalted()
T3DDC 000:471.775 - 4.914ms returns TRUE
T3DDC 000:471.895 JLINK_ReadReg(R15 (PC))
T3DDC 000:471.917 - 0.021ms returns 0x1FFF8000
T3DDC 000:471.930 JLINK_ClrBPEx(BPHandle = 0x0000000B)
T3DDC 000:471.943 - 0.012ms returns 0x00
T3DDC 000:471.960 JLINK_ReadReg(R0)
T3DDC 000:471.975 - 0.015ms returns 0x00000000
T3DDC 000:472.822 JLINK_WriteMem(0x1FFF8468, 0x100 Bytes, ...)
T3DDC 000:472.865   Data:  CD E9 01 23 22 46 23 46 00 F0 08 F9 03 B0 30 BD ...
T3DDC 000:472.893   CPU_WriteMem(256 bytes @ 0x1FFF8468)
T3DDC 000:475.622 - 2.799ms returns 0x100
T3DDC 000:475.754 JLINK_HasError()
T3DDC 000:475.777 JLINK_WriteReg(R0, 0x00000A00)
T3DDC 000:475.794 - 0.016ms returns 0
T3DDC 000:475.812 JLINK_WriteReg(R1, 0x00000100)
T3DDC 000:475.823 - 0.012ms returns 0
T3DDC 000:475.836 JLINK_WriteReg(R2, 0x1FFF8468)
T3DDC 000:475.846 - 0.010ms returns 0
T3DDC 000:475.857 JLINK_WriteReg(R3, 0x00000000)
T3DDC 000:475.867 - 0.009ms returns 0
T3DDC 000:475.879 JLINK_WriteReg(R4, 0x00000000)
T3DDC 000:475.888 - 0.009ms returns 0
T3DDC 000:475.900 JLINK_WriteReg(R5, 0x00000000)
T3DDC 000:475.910 - 0.009ms returns 0
T3DDC 000:475.921 JLINK_WriteReg(R6, 0x00000000)
T3DDC 000:475.932 - 0.010ms returns 0
T3DDC 000:475.944 JLINK_WriteReg(R7, 0x00000000)
T3DDC 000:475.953 - 0.009ms returns 0
T3DDC 000:475.965 JLINK_WriteReg(R8, 0x00000000)
T3DDC 000:475.975 - 0.010ms returns 0
T3DDC 000:475.986 JLINK_WriteReg(R9, 0x1FFF8464)
T3DDC 000:475.996 - 0.009ms returns 0
T3DDC 000:476.008 JLINK_WriteReg(R10, 0x00000000)
T3DDC 000:476.018 - 0.010ms returns 0
T3DDC 000:476.029 JLINK_WriteReg(R11, 0x00000000)
T3DDC 000:476.039 - 0.009ms returns 0
T3DDC 000:476.051 JLINK_WriteReg(R12, 0x00000000)
T3DDC 000:476.067 - 0.016ms returns 0
T3DDC 000:476.085 JLINK_WriteReg(R13 (SP), 0x1FFF9000)
T3DDC 000:476.096 - 0.011ms returns 0
T3DDC 000:476.107 JLINK_WriteReg(R14, 0x1FFF8001)
T3DDC 000:476.117 - 0.010ms returns 0
T3DDC 000:476.129 JLINK_WriteReg(R15 (PC), 0x1FFF8260)
T3DDC 000:476.138 - 0.009ms returns 0
T3DDC 000:476.150 JLINK_WriteReg(XPSR, 0x01000000)
T3DDC 000:476.160 - 0.009ms returns 0
T3DDC 000:476.171 JLINK_WriteReg(MSP, 0x1FFF9000)
T3DDC 000:476.181 - 0.009ms returns 0
T3DDC 000:476.192 JLINK_WriteReg(PSP, 0x1FFF9000)
T3DDC 000:476.202 - 0.010ms returns 0
T3DDC 000:476.214 JLINK_WriteReg(CFBP, 0x00000000)
T3DDC 000:476.223 - 0.009ms returns 0
T3DDC 000:476.236 JLINK_SetBPEx(Addr = 0x1FFF8000, Type = 0xFFFFFFF2)
T3DDC 000:476.248 - 0.012ms returns 0x0000000C
T3DDC 000:476.259 JLINK_Go()
T3DDC 000:476.276   CPU_WriteMem(4 bytes @ 0xE0002000)
T3DDC 000:477.062   CPU_ReadMem(4 bytes @ 0xE0001000)
T3DDC 000:482.217 - 5.956ms
T3DDC 000:482.400 JLINK_IsHalted()
T3DDC 000:487.653 - 5.253ms returns TRUE
T3DDC 000:487.793 JLINK_ReadReg(R15 (PC))
T3DDC 000:487.817 - 0.024ms returns 0x1FFF8000
T3DDC 000:487.832 JLINK_ClrBPEx(BPHandle = 0x0000000C)
T3DDC 000:487.847 - 0.015ms returns 0x00
T3DDC 000:487.872 JLINK_ReadReg(R0)
T3DDC 000:487.886 - 0.014ms returns 0x00000000
T3DDC 000:488.804 JLINK_WriteMem(0x1FFF8468, 0x100 Bytes, ...)
T3DDC 000:488.849   Data:  18 46 70 47 D1 60 04 49 51 61 04 49 11 62 00 21 ...
T3DDC 000:488.879   CPU_WriteMem(256 bytes @ 0x1FFF8468)
T3DDC 000:491.669 - 2.864ms returns 0x100
T3DDC 000:491.817 JLINK_HasError()
T3DDC 000:491.841 JLINK_WriteReg(R0, 0x00000B00)
T3DDC 000:491.862 - 0.020ms returns 0
T3DDC 000:491.877 JLINK_WriteReg(R1, 0x00000100)
T3DDC 000:491.891 - 0.014ms returns 0
T3DDC 000:491.904 JLINK_WriteReg(R2, 0x1FFF8468)
T3DDC 000:491.916 - 0.011ms returns 0
T3DDC 000:491.929 JLINK_WriteReg(R3, 0x00000000)
T3DDC 000:491.940 - 0.011ms returns 0
T3DDC 000:491.953 JLINK_WriteReg(R4, 0x00000000)
T3DDC 000:491.964 - 0.010ms returns 0
T3DDC 000:491.977 JLINK_WriteReg(R5, 0x00000000)
T3DDC 000:491.988 - 0.011ms returns 0
T3DDC 000:492.001 JLINK_WriteReg(R6, 0x00000000)
T3DDC 000:492.012 - 0.011ms returns 0
T3DDC 000:492.025 JLINK_WriteReg(R7, 0x00000000)
T3DDC 000:492.037 - 0.011ms returns 0
T3DDC 000:492.050 JLINK_WriteReg(R8, 0x00000000)
T3DDC 000:492.060 - 0.010ms returns 0
T3DDC 000:492.074 JLINK_WriteReg(R9, 0x1FFF8464)
T3DDC 000:492.085 - 0.011ms returns 0
T3DDC 000:492.098 JLINK_WriteReg(R10, 0x00000000)
T3DDC 000:492.109 - 0.011ms returns 0
T3DDC 000:492.122 JLINK_WriteReg(R11, 0x00000000)
T3DDC 000:492.133 - 0.011ms returns 0
T3DDC 000:492.146 JLINK_WriteReg(R12, 0x00000000)
T3DDC 000:492.157 - 0.010ms returns 0
T3DDC 000:492.171 JLINK_WriteReg(R13 (SP), 0x1FFF9000)
T3DDC 000:492.183 - 0.012ms returns 0
T3DDC 000:492.196 JLINK_WriteReg(R14, 0x1FFF8001)
T3DDC 000:492.207 - 0.011ms returns 0
T3DDC 000:492.221 JLINK_WriteReg(R15 (PC), 0x1FFF8260)
T3DDC 000:492.232 - 0.011ms returns 0
T3DDC 000:492.246 JLINK_WriteReg(XPSR, 0x01000000)
T3DDC 000:492.257 - 0.012ms returns 0
T3DDC 000:492.271 JLINK_WriteReg(MSP, 0x1FFF9000)
T3DDC 000:492.282 - 0.011ms returns 0
T3DDC 000:492.295 JLINK_WriteReg(PSP, 0x1FFF9000)
T3DDC 000:492.306 - 0.011ms returns 0
T3DDC 000:492.319 JLINK_WriteReg(CFBP, 0x00000000)
T3DDC 000:492.330 - 0.011ms returns 0
T3DDC 000:492.345 JLINK_SetBPEx(Addr = 0x1FFF8000, Type = 0xFFFFFFF2)
T3DDC 000:492.358 - 0.013ms returns 0x0000000D
T3DDC 000:492.375 JLINK_Go()
T3DDC 000:492.394   CPU_WriteMem(4 bytes @ 0xE0002000)
T3DDC 000:493.378   CPU_ReadMem(4 bytes @ 0xE0001000)
T3DDC 000:498.187 - 5.811ms
T3DDC 000:498.290 JLINK_IsHalted()
T3DDC 000:502.931 - 4.639ms returns TRUE
T3DDC 000:503.036 JLINK_ReadReg(R15 (PC))
T3DDC 000:503.060 - 0.024ms returns 0x1FFF8000
T3DDC 000:503.079 JLINK_ClrBPEx(BPHandle = 0x0000000D)
T3DDC 000:503.094 - 0.014ms returns 0x00
T3DDC 000:503.114 JLINK_ReadReg(R0)
T3DDC 000:503.128 - 0.014ms returns 0x00000000
T3DDC 000:504.132 JLINK_WriteMem(0x1FFF8468, 0x100 Bytes, ...)
T3DDC 000:504.164   Data:  14 1E 73 F1 00 04 08 DA 40 1C 41 F1 00 01 92 18 ...
T3DDC 000:504.211   CPU_WriteMem(256 bytes @ 0x1FFF8468)
T3DDC 000:506.682 - 2.549ms returns 0x100
T3DDC 000:506.791 JLINK_HasError()
T3DDC 000:506.815 JLINK_WriteReg(R0, 0x00000C00)
T3DDC 000:506.833 - 0.018ms returns 0
T3DDC 000:506.849 JLINK_WriteReg(R1, 0x00000100)
T3DDC 000:506.862 - 0.013ms returns 0
T3DDC 000:506.878 JLINK_WriteReg(R2, 0x1FFF8468)
T3DDC 000:506.891 - 0.013ms returns 0
T3DDC 000:506.906 JLINK_WriteReg(R3, 0x00000000)
T3DDC 000:506.919 - 0.012ms returns 0
T3DDC 000:506.934 JLINK_WriteReg(R4, 0x00000000)
T3DDC 000:506.947 - 0.012ms returns 0
T3DDC 000:506.962 JLINK_WriteReg(R5, 0x00000000)
T3DDC 000:506.975 - 0.013ms returns 0
T3DDC 000:506.990 JLINK_WriteReg(R6, 0x00000000)
